#Hz S RI R 50

! Date: 06/10/2024 09:45:00 am
! Freq                             S11                  
3.10000000000E+05 -5.01234567890E-01  7.76543210987E-01
4.63000000000E+07 -4.23098765432E-01  8.15432109876E-01
9.13000000000E+07 -3.48210987654E-01  8.49123456789E-01
1.36295500000E+08 -2.69321098765E-01  8.76789012345E-01
1.81294000000E+08 -1.89876543210E-01  8.96234567890E-01
2.26292500000E+08 -1.09123456789E-01  9.08567890123E-01
2.71291000000E+08 -2.19876543210E-02  9.12456789012E-01
3.16289500000E+08  5.96321098765E-02  9.11401234567E-01
3.61288000000E+08  1.39012345679E-01  9.02012345679E-01
4.06286500000E+08  2.15123456790E-01  8.87098765432E-01
4.51285000000E+08  2.90098765432E-01  8.65123456789E-01
4.96283500000E+08  3.61234567890E-01  8.38654321098E-01
5.41282000000E+08  4.28654321098E-01  8.06432109876E-01
5.86280500000E+08  4.93123456789E-01  7.68210987654E-01
6.31279000000E+08  5.52765432098E-01  7.26876543210E-01
6.76277500000E+08  6.09321098765E-01  6.81456789012E-01
7.21276000000E+08  6.61345678901E-01  6.32234567890E-01
7.66274500000E+08  7.07654321098E-01  5.80987654321E-01
8.11273000000E+08  7.50345678901E-01  5.26987654321E-01
8.56271500000E+08  7.87890123456E-01  4.70654321098E-01
9.01270000000E+08  8.21345678901E-01  4.13123456789E-01
9.46268500000E+08w  8.49012345679E-01  3.53456789012E-01
9.91267000000E+08  8.73321098765E-01  2.92876543210E-01
1.03626550000E+09  8.92098765432E-01  2.31543210987E-01
1.08126400000E+09  9.06543210987E-01  1.71345678901E-01
1.12626250000E+09  9.17210987654E-01  1.10432109876E-01
1.17126100000E+09  9.23345678901E-01  5.91098765432E-02
1.21625950000E+09  9.26234567890E-01 -1.65432109876E-03
1.26125800000E+09  9.24123456789E-01 -6.07654321098E-02
1.30625650000E+09  9.18345678901E-01 -1.19098765432E-01
1.35125500000E+09  9.09876543210E-01 -1.75901234568E-01
1.39625350000E+09  8.98901234567E-01 -2.31234567890E-01
1.44125200000E+09  8.82987654321E-01 -2.85210987654E-01
1.48625050000E+09  8.64432109876E-01 -3.38987654321E-01
1.53124900000E+09  8.43598765432E-01 -3.89123456789E-01
1.57624750000E+09  8.20432109876E-01 -4.39098765432E-01
1.62124600000E+09  7.93765432098E-01 -4.86432109876E-01
1.66624450000E+09  7.65098765432E-01 -5.30210987654E-01
1.71124300000E+09  7.34098765432E-01 -5.74321098765E-01
1.75624150000E+09  7.00345678901E-01 -6.15543210987E-01
1.80124000000E+09  6.65123456789E-01 -6.54098765432E-01
1.84623850000E+09  6.27876543210E-01 -6.90345678901E-01
1.89123700000E+09  5.88765432098E-01 -7.25098765432E-01
1.93623550000E+09  5.48432109876E-01 -7.58098765432E-01
1.98123400000E+09  5.05876543210E-01 -7.87765432098E-01
2.02623250000E+09  4.61654321098E-01 -8.14654321098E-01
2.07123100000E+09  4.16098765432E-01 -8.39876543210E-01
2.11622950000E+09  3.69123456789E-01 -8.62098765432E-01
2.16122800000E+09  3.21543210987E-01 -8.80765432098E-01
2.20622650000E+09  2.73210987654E-01 -8.98543210987E-01
2.25122500000E+09  2.22345678901E-01 -9.13345678901E-01
2.29622350000E+09  1.72876543210E-01 -9.24654321098E-01
2.34122200000E+09  1.21234567890E-01 -9.33543210987E-01
2.38622050000E+09  6.85321098765E-02 -9.38987654321E-01
2.43121900000E+09  1.54321098765E-02 -9.42210987654E-01
2.47621750000E+09 -3.80765432098E-02 -9.41234567890E-01
2.52121600000E+09 -9.18987654321E-02 -9.38654321098E-01
2.56621450000E+09 -1.46765432098E-01 -9.31987654321E-01
2.61121300000E+09 -2.01123456789E-01 -9.22345678901E-01
2.65621150000E+09 -2.56398765432E-01 -9.09543210987E-01
2.70121000000E+09 -3.11432109876E-01 -8.91765432098E-01
2.74620850000E+09 -3.66345678901E-01 -8.69876543210E-01
2.79120700000E+09 -4.20698765432E-01 -8.46210987654E-01
2.83620550000E+09 -4.75123456789E-01 -8.17123456789E-01
2.88120400000E+09 -5.28543210987E-01 -7.82123456789E-01
2.92620250000E+09 -5.81123456789E-01 -7.43876543210E-01
2.97120100000E+09 -6.33543210987E-01 -7.00321098765E-01
3.01619950000E+09 -6.84321098765E-01 -6.50432109876E-01
3.06119800000E+09 -7.32598765432E-01 -5.94210987654E-01
3.10619650000E+09 -7.77432109876E-01 -5.32345678901E-01
3.15119500000E+09 -8.20654321098E-01 -4.62876543210E-01
3.19619350000E+09 -8.59123456789E-01 -3.84432109876E-01
3.24119200000E+09 -8.91321098765E-01 -2.99123456789E-01
3.28619050000E+09 -9.16432109876E-01 -2.01234567890E-01
3.33118900000E+09 -9.32098765432E-01 -9.23456789012E-02
3.37618750000E+09 -9.33456789012E-01  3.27432109876E-02
3.42118600000E+09 -9.12543210987E-01  1.77901234568E-01
3.46618450000E+09 -8.55432109876E-01  3.47543210987E-01
3.51118300000E+09 -7.28987654321E-01  5.46654321098E-01
3.55618150000E+09 -4.49432109876E-01  7.60987654321E-01
3.60118000000E+09  1.94123456789E-01  7.34765432098E-01
3.64617850000E+09  1.26987654321E-01 -1.76432109876E-01
3.69117700000E+09 -1.39876543210E-01  5.14210987654E-02
3.73617550000E+09 -1.39321098765E-01 -4.53210987654E-02
3.78117400000E+09 -2.21765432098E-01  4.04987654321E-02
3.82617250000E+09 -5.71654321098E-02  5.25123456789E-02
3.87117100000E+09 -7.10123456789E-02 -1.70987654321E-01
3.91616950000E+09 -2.55123456789E-01 -1.41098765432E-01
3.96116800000E+09 -1.30432109876E-01 -2.83098765432E-02
4.00616650000E+09 -5.74654321098E-02 -2.68123456789E-01
4.05116500000E+09 -8.08654321098E-02 -3.93901234568E-01
4.09616350000E+09 -5.19210987654E-01 -6.73098765432E-01
4.14116200000E+09 -8.09765432098E-01 -4.15543210987E-01
4.18616050000E+09 -8.99987654321E-01 -1.87123456789E-01
4.23115900000E+09 -9.22398765432E-01  1.90123456789E-03
4.27615750000E+09 -9.08901234568E-01  1.59654321098E-01
4.32115600000E+09 -8.73210987654E-01  2.97543210987E-01
4.36615450000E+09 -8.22765432098E-01  4.16987654321E-01
4.41115300000E+09 -7.59765432098E-01  5.21976543210E-01
4.45615150000E+09 -6.86765432098E-01  6.14321098765E-01
4.50115000000E+09 -6.06543210987E-01  6.92654321098E-01
4.54614850000E+09 -5.19543210987E-01  7.58543210987E-01
4.59114700000E+09 -4.28098765432E-01  8.12765432098E-01
4.63614550000E+09 -3.32765432098E-01  8.56123456789E-01
4.68114400000E+09 -2.36098765432E-01  8.88098765432E-01
4.72614250000E+09 -1.36123456789E-01  9.07543210987E-01
4.77114100000E+09 -3.81098765432E-02  9.16654321098E-01
4.81613950000E+09  5.98543210987E-02  9.14123456789E-01
4.86113800000E+09  1.54654321098E-01  9.14123456789E-01